T66D0 000:006.884   SEGGER J-Link V7.92n Log File
T66D0 000:007.008   DLL Compiled: Oct 31 2023 15:10:15
T66D0 000:007.031   Logging started @ 2024-01-04 04:30
T66D0 000:007.035   Process: D:\Keil\ARM\UV4\UV4.exe
T66D0 000:007.042 - 7.038ms
T66D0 000:007.049 JLINK_SetWarnOutHandler(...)
T66D0 000:007.053 - 0.005ms
T66D0 000:007.057 JLINK_OpenEx(...)
T66D0 000:262.494   Firmware: J-Link V9 compiled May  7 2021 16:26:12
T66D0 000:263.246   Firmware: J-Link V9 compiled May  7 2021 16:26:12
T66D0 000:263.378   Decompressing FW timestamp took 109 us
T66D0 000:269.865   Hardware: V9.50
T66D0 000:269.887   S/N: 69512294
T66D0 000:269.891   OEM: SEGGER
T66D0 000:269.896   Feature(s): JFlash, GDB, RDI, FlashBP, FlashDL
T66D0 000:270.527   Bootloader: (Could not read)
T66D0 000:282.477   TELNET listener socket opened on port 19021
T66D0 000:282.597   WEBSRV WEBSRV_Init(): Starting webserver thread(s)
T66D0 000:283.798   WEBSRV Failed to put socket into listener state (port 19080)
T66D0 000:283.816   WEBSRV Failed to put socket into listener state (port 19081)
T66D0 000:283.824   WEBSRV Failed to put socket into listener state (port 19082)
T66D0 000:283.833   WEBSRV Failed to put socket into listener state (port 19083)
T66D0 000:283.841   WEBSRV Failed to put socket into listener state (port 19084)
T66D0 000:283.848   WEBSRV Failed to put socket into listener state (port 19085)
T66D0 000:283.856   WEBSRV Failed to put socket into listener state (port 19086)
T66D0 000:283.864   WEBSRV Failed to put socket into listener state (port 19087)
T66D0 000:283.872   WEBSRV Failed to put socket into listener state (port 19088)
T66D0 000:283.880   WEBSRV Failed to put socket into listener state (port 19089)
T66D0 000:283.890   WEBSRV Failed to put socket into listener state (port 19090)
T66D0 000:283.900   WEBSRV Failed to put socket into listener state (port 19091)
T66D0 000:283.908   WEBSRV Failed to put socket into listener state (port 19092)
T66D0 000:283.916   WEBSRV Failed to put socket into listener state (port 19093)
T66D0 000:283.924   WEBSRV Failed to put socket into listener state (port 19094)
T66D0 000:283.932   WEBSRV Failed to put socket into listener state (port 19095)
T66D0 000:283.939   WEBSRV Failed to put socket into listener state (port 19096)
T66D0 000:283.948   WEBSRV Failed to put socket into listener state (port 19097)
T66D0 000:283.955   WEBSRV Failed to put socket into listener state (port 19098)
T66D0 000:283.963   WEBSRV Failed to put socket into listener state (port 19099)
T66D0 000:283.971   WEBSRV Failed to put socket into listener state (port 19100)
T66D0 000:283.979   WEBSRV Failed to put socket into listener state (port 19101)
T66D0 000:283.987   WEBSRV Failed to put socket into listener state (port 19102)
T66D0 000:283.994   WEBSRV Failed to put socket into listener state (port 19103)
T66D0 000:284.002   WEBSRV Failed to put socket into listener state (port 19104)
T66D0 000:284.010   WEBSRV Failed to put socket into listener state (port 19105)
T66D0 000:284.018   WEBSRV Failed to put socket into listener state (port 19106)
T66D0 000:284.025   WEBSRV Failed to put socket into listener state (port 19107)
T66D0 000:284.033   WEBSRV Failed to put socket into listener state (port 19108)
T66D0 000:284.109   WEBSRV Webserver running on local port 19109
T66D0 000:284.193   Looking for J-Link GUI Server exe at: D:\Keil\ARM\ARM\Segger\JLinkGUIServer.exe
T66D0 000:284.251   Looking for J-Link GUI Server exe at: \JLinkGUIServer.exe
T66D0 000:585.281   Failed to connect to J-Link GUI Server.
T66D0 000:585.317 - 578.245ms returns "O.K."
T66D0 000:585.328 JLINK_GetEmuCaps()
T66D0 000:585.334 - 0.004ms returns 0xB9FF7BBF
T66D0 000:585.339 JLINK_TIF_GetAvailable(...)
T66D0 000:585.549 - 0.210ms
T66D0 000:585.555 JLINK_SetErrorOutHandler(...)
T66D0 000:585.558 - 0.003ms
T66D0 000:585.587 JLINK_ExecCommand("ProjectFile = "E:\Project for Work\LoRa-126x_TEST\WB25(STM32L051)\MDK-ARM\JLinkSettings.ini"", ...). 
T66D0 000:597.293   Ref file found at: D:\Keil\ARM\ARM\Segger\JLinkDevices.ref
T66D0 000:597.517   REF file references invalid XML file: C:\Program Files\SEGGER\V7.92\JLink\JLinkDevices.xml
T66D0 000:597.736 - 12.151ms returns 0x00
T66D0 000:599.963 JLINK_ExecCommand("Device = STM32L051K8Ux", ...). 
T66D0 000:601.624   Device "STM32L051K8" selected.
T66D0 000:602.111 - 2.134ms returns 0x00
T66D0 000:602.120 JLINK_ExecCommand("DisableConnectionTimeout", ...). 
T66D0 000:602.127 - 0.001ms returns 0x01
T66D0 000:602.132 JLINK_GetHardwareVersion()
T66D0 000:602.135 - 0.003ms returns 95000
T66D0 000:602.145 JLINK_GetDLLVersion()
T66D0 000:602.149 - 0.003ms returns 79214
T66D0 000:602.154 JLINK_GetOEMString(...)
T66D0 000:602.159 JLINK_GetFirmwareString(...)
T66D0 000:602.162 - 0.004ms
T66D0 000:606.925 JLINK_GetDLLVersion()
T66D0 000:606.946 - 0.021ms returns 79214
T66D0 000:606.951 JLINK_GetCompileDateTime()
T66D0 000:606.954 - 0.003ms
T66D0 000:608.275 JLINK_GetFirmwareString(...)
T66D0 000:608.288 - 0.012ms
T66D0 000:609.572 JLINK_GetHardwareVersion()
T66D0 000:609.582 - 0.009ms returns 95000
T66D0 000:612.197 JLINK_GetSN()
T66D0 000:612.239 - 0.042ms returns 69512294
T66D0 000:614.237 JLINK_GetOEMString(...)
T66D0 000:616.951 JLINK_TIF_Select(JLINKARM_TIF_SWD)
T66D0 000:617.644 - 0.693ms returns 0x00
T66D0 000:617.654 JLINK_HasError()
T66D0 000:617.672 JLINK_SetSpeed(5000)
T66D0 000:617.779 - 0.107ms
T66D0 000:617.785 JLINK_GetId()
T66D0 000:619.260   InitTarget() start
T66D0 000:619.274    J-Link Script File: Executing InitTarget()
T66D0 000:620.772   SWD selected. Executing JTAG -> SWD switching sequence.
T66D0 000:623.859   DAP initialized successfully.
T66D0 000:632.650   InitTarget() end - Took 11.3ms
T66D0 000:634.689   Found SW-DP with ID 0x0BC11477
T66D0 000:638.353   DPIDR: 0x0BC11477
T66D0 000:639.715   CoreSight SoC-400 or earlier
T66D0 000:640.982   Scanning AP map to find all available APs
T66D0 000:642.749   AP[1]: Stopped AP scan as end of AP map has been reached
T66D0 000:644.292   AP[0]: AHB-AP (IDR: 0x04770031)
T66D0 000:646.192   Iterating through AP map to find AHB-AP to use
T66D0 000:648.506   AP[0]: Core found
T66D0 000:649.803   AP[0]: AHB-AP ROM base: 0xF0000000
T66D0 000:651.566   CPUID register: 0x410CC601. Implementer code: 0x41 (ARM)
T66D0 000:653.585   Found Cortex-M0 r0p1, Little endian.
T66D0 000:654.029   -- Max. mem block: 0x00010928
T66D0 000:654.555   CPU_ReadMem(4 bytes @ 0xE000EDF0)
T66D0 000:654.787   CPU_ReadMem(4 bytes @ 0xE0002000)
T66D0 000:656.432   FPUnit: 4 code (BP) slots and 0 literal slots
T66D0 000:656.445   CPU_ReadMem(4 bytes @ 0xE000EDFC)
T66D0 000:656.707   CPU_ReadMem(4 bytes @ 0xE0001000)
T66D0 000:656.977   CPU_WriteMem(4 bytes @ 0xE0001000)
T66D0 000:658.602   CoreSight components:
T66D0 000:660.117   ROMTbl[0] @ F0000000
T66D0 000:660.136   CPU_ReadMem(64 bytes @ 0xF0000000)
T66D0 000:660.699   CPU_ReadMem(32 bytes @ 0xE00FFFE0)
T66D0 000:662.861   [0][0]: E00FF000 CID B105100D PID 000BB4C0 ROM Table
T66D0 000:664.200   ROMTbl[1] @ E00FF000
T66D0 000:664.219   CPU_ReadMem(64 bytes @ 0xE00FF000)
T66D0 000:664.767   CPU_ReadMem(32 bytes @ 0xE000EFE0)
T66D0 000:666.465   [1][0]: E000E000 CID B105E00D PID 000BB008 SCS
T66D0 000:666.479   CPU_ReadMem(32 bytes @ 0xE0001FE0)
T66D0 000:668.618   [1][1]: E0001000 CID B105E00D PID 000BB00A DWT
T66D0 000:668.637   CPU_ReadMem(32 bytes @ 0xE0002FE0)
T66D0 000:670.440   [1][2]: E0002000 CID B105E00D PID 000BB00B FPB
T66D0 000:670.697 - 52.911ms returns 0x0BC11477
T66D0 000:670.714 JLINK_GetDLLVersion()
T66D0 000:670.718 - 0.003ms returns 79214
T66D0 000:670.723 JLINK_CORE_GetFound()
T66D0 000:670.726 - 0.003ms returns 0x60000FF
T66D0 000:670.826 JLINK_GetDebugInfo(0x100 = JLINKARM_ROM_TABLE_ADDR_INDEX)
T66D0 000:670.830   Value=0xF0000000
T66D0 000:670.835 - 0.009ms returns 0
T66D0 000:672.180 JLINK_GetDebugInfo(0x100 = JLINKARM_ROM_TABLE_ADDR_INDEX)
T66D0 000:672.188   Value=0xF0000000
T66D0 000:672.194 - 0.013ms returns 0
T66D0 000:672.198 JLINK_GetDebugInfo(0x101 = JLINKARM_DEBUG_INFO_ETM_ADDR_INDEX)
T66D0 000:672.201   Value=0x00000000
T66D0 000:672.254 - 0.056ms returns 0
T66D0 000:672.268 JLINK_ReadMemEx(0xE0041FF0, 0x10 Bytes, Flags = 0x02000004)
T66D0 000:672.291   CPU_ReadMem(16 bytes @ 0xE0041FF0)
T66D0 000:672.639   Data:  00 00 00 00 00 00 00 00 00 00 00 00 00 00 00 00
T66D0 000:672.645 - 0.377ms returns 16 (0x10)
T66D0 000:672.650 JLINK_GetDebugInfo(0x102 = JLINKARM_DEBUG_INFO_MTB_ADDR_INDEX)
T66D0 000:672.653   Value=0x00000000
T66D0 000:672.658 - 0.008ms returns 0
T66D0 000:672.662 JLINK_GetDebugInfo(0x103 = JLINKARM_DEBUG_INFO_TPIU_ADDR_INDEX)
T66D0 000:672.665   Value=0x00000000
T66D0 000:672.670 - 0.008ms returns 0
T66D0 000:672.674 JLINK_ReadMemEx(0xE0040FF0, 0x10 Bytes, Flags = 0x02000004)
T66D0 000:672.679   CPU_ReadMem(16 bytes @ 0xE0040FF0)
T66D0 000:672.988   Data:  00 00 00 00 00 00 00 00 00 00 00 00 00 00 00 00
T66D0 000:672.994 - 0.320ms returns 16 (0x10)
T66D0 000:672.998 JLINK_GetDebugInfo(0x104 = JLINKARM_DEBUG_INFO_ITM_ADDR_INDEX)
T66D0 000:673.002   Value=0xE0000000
T66D0 000:673.007 - 0.008ms returns 0
T66D0 000:673.010 JLINK_GetDebugInfo(0x105 = JLINKARM_DEBUG_INFO_DWT_ADDR_INDEX)
T66D0 000:673.014   Value=0xE0001000
T66D0 000:673.019 - 0.008ms returns 0
T66D0 000:673.022 JLINK_GetDebugInfo(0x106 = JLINKARM_DEBUG_INFO_FPB_ADDR_INDEX)
T66D0 000:673.026   Value=0xE0002000
T66D0 000:673.030 - 0.008ms returns 0
T66D0 000:673.034 JLINK_GetDebugInfo(0x107 = JLINKARM_DEBUG_INFO_NVIC_ADDR_INDEX)
T66D0 000:673.037   Value=0xE000E000
T66D0 000:673.042 - 0.008ms returns 0
T66D0 000:673.046 JLINK_GetDebugInfo(0x10C = JLINKARM_DEBUG_INFO_DBG_ADDR_INDEX)
T66D0 000:673.049   Value=0xE000EDF0
T66D0 000:673.054 - 0.008ms returns 0
T66D0 000:673.061 JLINK_GetDebugInfo(0x01 = Unknown)
T66D0 000:673.065   Value=0x00000000
T66D0 000:673.069 - 0.011ms returns 0
T66D0 000:673.073 JLINK_ReadMemU32(0xE000ED00, 0x1 Items)
T66D0 000:673.078   CPU_ReadMem(4 bytes @ 0xE000ED00)
T66D0 000:673.352   Data:  01 C6 0C 41
T66D0 000:673.358   Debug reg: CPUID
T66D0 000:673.362 - 0.289ms returns 1 (0x1)
T66D0 000:673.367 JLINK_GetDebugInfo(0x10F = JLINKARM_DEBUG_INFO_HAS_CORTEX_M_SECURITY_EXT_INDEX)
T66D0 000:673.370   Value=0x00000000
T66D0 000:673.375 - 0.008ms returns 0
T66D0 000:673.380 JLINK_HasError()
T66D0 000:673.384 JLINK_SetResetType(JLINKARM_CM3_RESET_TYPE_NORMAL)
T66D0 000:673.388 - 0.003ms returns JLINKARM_CM3_RESET_TYPE_NORMAL
T66D0 000:673.392 JLINK_Reset()
T66D0 000:673.407   CPU is running
T66D0 000:673.412   CPU_WriteMem(4 bytes @ 0xE000EDF0)
T66D0 000:673.671   CPU is running
T66D0 000:673.676   CPU_WriteMem(4 bytes @ 0xE000EDFC)
T66D0 000:675.223   Reset: Halt core after reset via DEMCR.VC_CORERESET.
T66D0 000:677.220   Reset: Reset device via AIRCR.SYSRESETREQ.
T66D0 000:677.237   CPU is running
T66D0 000:677.245   CPU_WriteMem(4 bytes @ 0xE000ED0C)
T66D0 000:731.288   CPU_ReadMem(4 bytes @ 0xE000EDF0)
T66D0 000:731.600   CPU_ReadMem(4 bytes @ 0xE000EDF0)
T66D0 000:733.905   CPU_WriteMem(4 bytes @ 0xE000EDFC)
T66D0 000:740.275   CPU_ReadMem(4 bytes @ 0xE000EDF0)
T66D0 000:742.487   CPU_WriteMem(4 bytes @ 0xE0002000)
T66D0 000:742.827   CPU_ReadMem(4 bytes @ 0xE000EDFC)
T66D0 000:743.149   CPU_ReadMem(4 bytes @ 0xE0001000)
T66D0 000:743.510   CPU_WriteMem(4 bytes @ 0xE0001000)
T66D0 000:743.915 - 70.520ms
T66D0 000:743.961 JLINK_Halt()
T66D0 000:743.973 - 0.012ms returns 0x00
T66D0 000:743.985 JLINK_ReadMemU32(0xE000EDF0, 0x1 Items)
T66D0 000:744.020   CPU_ReadMem(4 bytes @ 0xE000EDF0)
T66D0 000:744.438   Data:  03 00 03 00
T66D0 000:744.500   Debug reg: DHCSR
T66D0 000:744.513 - 0.527ms returns 1 (0x1)
T66D0 000:744.778 JLINK_WriteU32_64(0xE000EDF0, 0xA05F0003)
T66D0 000:744.791   Debug reg: DHCSR
T66D0 000:745.099   CPU_WriteMem(4 bytes @ 0xE000EDF0)
T66D0 000:745.477 - 0.702ms returns 0 (0x00000000)
T66D0 000:745.494 JLINK_WriteU32_64(0xE000EDFC, 0x01000000)
T66D0 000:745.501   Debug reg: DEMCR
T66D0 000:745.515   CPU_WriteMem(4 bytes @ 0xE000EDFC)
T66D0 000:745.794 - 0.299ms returns 0 (0x00000000)
T66D0 000:754.409 JLINK_GetHWStatus(...)
T66D0 000:754.638 - 0.228ms returns 0
T66D0 000:758.535 JLINK_GetNumBPUnits(Type = 0xFFFFFF00)
T66D0 000:758.551 - 0.016ms returns 0x04
T66D0 000:758.556 JLINK_GetNumBPUnits(Type = 0xF0)
T66D0 000:758.560 - 0.003ms returns 0x2000
T66D0 000:758.564 JLINK_GetNumWPUnits()
T66D0 000:758.567 - 0.003ms returns 2
T66D0 000:762.248 JLINK_GetSpeed()
T66D0 000:762.272 - 0.024ms returns 4000
T66D0 000:768.268 JLINK_ReadMemU32(0xE000E004, 0x1 Items)
T66D0 000:768.306   CPU_ReadMem(4 bytes @ 0xE000E004)
T66D0 000:768.619   Data:  00 00 00 00
T66D0 000:768.626 - 0.358ms returns 1 (0x1)
T66D0 000:768.634 JLINK_Halt()
T66D0 000:768.638 - 0.003ms returns 0x00
T66D0 000:768.642 JLINK_IsHalted()
T66D0 000:768.646 - 0.004ms returns TRUE
T66D0 000:771.141 JLINK_WriteMem(0x20000000, 0x140 Bytes, ...)
T66D0 000:771.153   Data:  00 BE 0A E0 0D 78 2D 06 68 40 08 24 40 00 00 D3 ...
T66D0 000:771.334   CPU_WriteMem(320 bytes @ 0x20000000)
T66D0 000:773.124 - 1.982ms returns 0x140
T66D0 000:773.158 JLINK_HasError()
T66D0 000:773.163 JLINK_WriteReg(R0, 0x08000000)
T66D0 000:773.170 - 0.006ms returns 0
T66D0 000:773.174 JLINK_WriteReg(R1, 0x00B71B00)
T66D0 000:773.177 - 0.003ms returns 0
T66D0 000:773.182 JLINK_WriteReg(R2, 0x00000001)
T66D0 000:773.185 - 0.003ms returns 0
T66D0 000:773.189 JLINK_WriteReg(R3, 0x00000000)
T66D0 000:773.193 - 0.003ms returns 0
T66D0 000:773.197 JLINK_WriteReg(R4, 0x00000000)
T66D0 000:773.200 - 0.003ms returns 0
T66D0 000:773.204 JLINK_WriteReg(R5, 0x00000000)
T66D0 000:773.208 - 0.003ms returns 0
T66D0 000:773.212 JLINK_WriteReg(R6, 0x00000000)
T66D0 000:773.215 - 0.003ms returns 0
T66D0 000:773.219 JLINK_WriteReg(R7, 0x00000000)
T66D0 000:773.223 - 0.003ms returns 0
T66D0 000:773.237 JLINK_WriteReg(R8, 0x00000000)
T66D0 000:773.240 - 0.014ms returns 0
T66D0 000:773.244 JLINK_WriteReg(R9, 0x2000013C)
T66D0 000:773.248 - 0.003ms returns 0
T66D0 000:773.252 JLINK_WriteReg(R10, 0x00000000)
T66D0 000:773.256 - 0.003ms returns 0
T66D0 000:773.260 JLINK_WriteReg(R11, 0x00000000)
T66D0 000:773.265 - 0.004ms returns 0
T66D0 000:773.269 JLINK_WriteReg(R12, 0x00000000)
T66D0 000:773.273 - 0.003ms returns 0
T66D0 000:773.277 JLINK_WriteReg(R13 (SP), 0x20001000)
T66D0 000:773.282 - 0.005ms returns 0
T66D0 000:773.287 JLINK_WriteReg(R14, 0x20000001)
T66D0 000:773.292 - 0.004ms returns 0
T66D0 000:773.301 JLINK_WriteReg(R15 (PC), 0x20000020)
T66D0 000:773.306 - 0.008ms returns 0
T66D0 000:773.310 JLINK_WriteReg(XPSR, 0x01000000)
T66D0 000:773.313 - 0.003ms returns 0
T66D0 000:773.317 JLINK_WriteReg(MSP, 0x20001000)
T66D0 000:773.321 - 0.003ms returns 0
T66D0 000:773.325 JLINK_WriteReg(PSP, 0x20001000)
T66D0 000:773.329 - 0.003ms returns 0
T66D0 000:773.333 JLINK_WriteReg(CFBP, 0x00000000)
T66D0 000:773.336 - 0.003ms returns 0
T66D0 000:773.341 JLINK_SetBPEx(Addr = 0x20000000, Type = 0xFFFFFFF2)
T66D0 000:773.349   CPU_ReadMem(2 bytes @ 0x20000000)
T66D0 000:773.637 - 0.295ms returns 0x00000001
T66D0 000:773.642 JLINK_Go()
T66D0 000:773.647   CPU_WriteMem(2 bytes @ 0x20000000)
T66D0 000:773.922   CPU_ReadMem(4 bytes @ 0xE0001000)
T66D0 000:774.229   CPU_WriteMem(4 bytes @ 0xE0001000)
T66D0 000:774.503   CPU_WriteMem(4 bytes @ 0xE0002008)
T66D0 000:774.509   CPU_WriteMem(4 bytes @ 0xE000200C)
T66D0 000:774.514   CPU_WriteMem(4 bytes @ 0xE0002010)
T66D0 000:774.519   CPU_WriteMem(4 bytes @ 0xE0002014)
T66D0 000:775.230   CPU_WriteMem(4 bytes @ 0xE0001004)
T66D0 000:779.649   Memory map 'after startup completion point' is active
T66D0 000:779.672 - 6.028ms
T66D0 000:779.680 JLINK_IsHalted()
T66D0 000:781.573   CPU_ReadMem(2 bytes @ 0x20000000)
T66D0 000:781.893 - 2.212ms returns TRUE
T66D0 000:781.899 JLINK_ReadReg(R15 (PC))
T66D0 000:781.904 - 0.005ms returns 0x20000000
T66D0 000:781.908 JLINK_ClrBPEx(BPHandle = 0x00000001)
T66D0 000:781.912 - 0.004ms returns 0x00
T66D0 000:781.916 JLINK_ReadReg(R0)
T66D0 000:781.920 - 0.003ms returns 0x00000000
T66D0 000:782.105 JLINK_HasError()
T66D0 000:782.112 JLINK_WriteReg(R0, 0x08000000)
T66D0 000:782.117 - 0.005ms returns 0
T66D0 000:782.124 JLINK_WriteReg(R1, 0x00000080)
T66D0 000:782.130 - 0.006ms returns 0
T66D0 000:782.135 JLINK_WriteReg(R2, 0x00000000)
T66D0 000:782.138 - 0.003ms returns 0
T66D0 000:782.142 JLINK_WriteReg(R3, 0x00000000)
T66D0 000:782.146 - 0.003ms returns 0
T66D0 000:782.150 JLINK_WriteReg(R4, 0x00000000)
T66D0 000:782.153 - 0.003ms returns 0
T66D0 000:782.157 JLINK_WriteReg(R5, 0x00000000)
T66D0 000:782.161 - 0.003ms returns 0
T66D0 000:782.165 JLINK_WriteReg(R6, 0x00000000)
T66D0 000:782.168 - 0.003ms returns 0
T66D0 000:782.172 JLINK_WriteReg(R7, 0x00000000)
T66D0 000:782.176 - 0.003ms returns 0
T66D0 000:782.180 JLINK_WriteReg(R8, 0x00000000)
T66D0 000:782.183 - 0.003ms returns 0
T66D0 000:782.187 JLINK_WriteReg(R9, 0x2000013C)
T66D0 000:782.191 - 0.003ms returns 0
T66D0 000:782.195 JLINK_WriteReg(R10, 0x00000000)
T66D0 000:782.199 - 0.003ms returns 0
T66D0 000:782.202 JLINK_WriteReg(R11, 0x00000000)
T66D0 000:782.206 - 0.003ms returns 0
T66D0 000:782.210 JLINK_WriteReg(R12, 0x00000000)
T66D0 000:782.214 - 0.003ms returns 0
T66D0 000:782.218 JLINK_WriteReg(R13 (SP), 0x20001000)
T66D0 000:782.222 - 0.004ms returns 0
T66D0 000:782.226 JLINK_WriteReg(R14, 0x20000001)
T66D0 000:782.229 - 0.003ms returns 0
T66D0 000:782.234 JLINK_WriteReg(R15 (PC), 0x200000B0)
T66D0 000:782.237 - 0.004ms returns 0
T66D0 000:782.241 JLINK_WriteReg(XPSR, 0x01000000)
T66D0 000:782.245 - 0.003ms returns 0
T66D0 000:782.249 JLINK_WriteReg(MSP, 0x20001000)
T66D0 000:782.253 - 0.003ms returns 0
T66D0 000:782.257 JLINK_WriteReg(PSP, 0x20001000)
T66D0 000:782.260 - 0.003ms returns 0
T66D0 000:782.266 JLINK_WriteReg(CFBP, 0x00000000)
T66D0 000:782.270 - 0.004ms returns 0
T66D0 000:782.274 JLINK_SetBPEx(Addr = 0x20000000, Type = 0xFFFFFFF2)
T66D0 000:782.279 - 0.004ms returns 0x00000002
T66D0 000:782.283 JLINK_Go()
T66D0 000:782.291   CPU_ReadMem(4 bytes @ 0xE0001000)
T66D0 000:784.514 - 2.231ms
T66D0 000:784.520 JLINK_IsHalted()
T66D0 000:786.489   CPU_ReadMem(2 bytes @ 0x20000000)
T66D0 000:786.755 - 2.234ms returns TRUE
T66D0 000:786.760 JLINK_ReadReg(R15 (PC))
T66D0 000:786.764 - 0.004ms returns 0x20000000
T66D0 000:786.768 JLINK_ClrBPEx(BPHandle = 0x00000002)
T66D0 000:786.772 - 0.003ms returns 0x00
T66D0 000:786.776 JLINK_ReadReg(R0)
T66D0 000:786.779 - 0.003ms returns 0x00000001
T66D0 000:786.784 JLINK_HasError()
T66D0 000:786.788 JLINK_WriteReg(R0, 0x08000000)
T66D0 000:786.792 - 0.003ms returns 0
T66D0 000:786.796 JLINK_WriteReg(R1, 0x00000080)
T66D0 000:786.799 - 0.003ms returns 0
T66D0 000:786.803 JLINK_WriteReg(R2, 0x00000000)
T66D0 000:786.807 - 0.003ms returns 0
T66D0 000:786.811 JLINK_WriteReg(R3, 0x00000000)
T66D0 000:786.814 - 0.003ms returns 0
T66D0 000:786.818 JLINK_WriteReg(R4, 0x00000000)
T66D0 000:786.822 - 0.003ms returns 0
T66D0 000:786.826 JLINK_WriteReg(R5, 0x00000000)
T66D0 000:786.829 - 0.003ms returns 0
T66D0 000:786.833 JLINK_WriteReg(R6, 0x00000000)
T66D0 000:786.837 - 0.003ms returns 0
T66D0 000:786.841 JLINK_WriteReg(R7, 0x00000000)
T66D0 000:786.844 - 0.003ms returns 0
T66D0 000:786.848 JLINK_WriteReg(R8, 0x00000000)
T66D0 000:786.852 - 0.003ms returns 0
T66D0 000:786.856 JLINK_WriteReg(R9, 0x2000013C)
T66D0 000:786.859 - 0.003ms returns 0
T66D0 000:786.863 JLINK_WriteReg(R10, 0x00000000)
T66D0 000:786.867 - 0.003ms returns 0
T66D0 000:786.871 JLINK_WriteReg(R11, 0x00000000)
T66D0 000:786.874 - 0.003ms returns 0
T66D0 000:786.878 JLINK_WriteReg(R12, 0x00000000)
T66D0 000:786.882 - 0.003ms returns 0
T66D0 000:786.886 JLINK_WriteReg(R13 (SP), 0x20001000)
T66D0 000:786.890 - 0.003ms returns 0
T66D0 000:786.894 JLINK_WriteReg(R14, 0x20000001)
T66D0 000:786.897 - 0.003ms returns 0
T66D0 000:786.901 JLINK_WriteReg(R15 (PC), 0x2000007A)
T66D0 000:786.905 - 0.003ms returns 0
T66D0 000:786.909 JLINK_WriteReg(XPSR, 0x01000000)
T66D0 000:786.912 - 0.003ms returns 0
T66D0 000:786.916 JLINK_WriteReg(MSP, 0x20001000)
T66D0 000:786.920 - 0.003ms returns 0
T66D0 000:786.924 JLINK_WriteReg(PSP, 0x20001000)
T66D0 000:786.927 - 0.003ms returns 0
T66D0 000:786.933 JLINK_WriteReg(CFBP, 0x00000000)
T66D0 000:786.937 - 0.003ms returns 0
T66D0 000:786.941 JLINK_SetBPEx(Addr = 0x20000000, Type = 0xFFFFFFF2)
T66D0 000:786.945 - 0.003ms returns 0x00000003
T66D0 000:786.949 JLINK_Go()
T66D0 000:786.954   CPU_ReadMem(4 bytes @ 0xE0001000)
T66D0 000:789.127 - 2.178ms
T66D0 000:789.137 JLINK_IsHalted()
T66D0 000:789.424 - 0.287ms returns FALSE
T66D0 000:789.430 JLINK_HasError()
T66D0 000:818.272 JLINK_IsHalted()
T66D0 000:820.242   CPU_ReadMem(2 bytes @ 0x20000000)
T66D0 000:820.507 - 2.235ms returns TRUE
T66D0 000:820.513 JLINK_ReadReg(R15 (PC))
T66D0 000:820.518 - 0.005ms returns 0x20000000
T66D0 000:820.522 JLINK_ClrBPEx(BPHandle = 0x00000003)
T66D0 000:820.526 - 0.003ms returns 0x00
T66D0 000:820.530 JLINK_ReadReg(R0)
T66D0 000:820.534 - 0.003ms returns 0x00000000
T66D0 000:820.876 JLINK_HasError()
T66D0 000:820.886 JLINK_WriteReg(R0, 0x08000080)
T66D0 000:820.892 - 0.005ms returns 0
T66D0 000:820.896 JLINK_WriteReg(R1, 0x00000080)
T66D0 000:820.899 - 0.003ms returns 0
T66D0 000:820.903 JLINK_WriteReg(R2, 0x00000000)
T66D0 000:820.907 - 0.003ms returns 0
T66D0 000:820.911 JLINK_WriteReg(R3, 0x00000000)
T66D0 000:820.915 - 0.003ms returns 0
T66D0 000:820.919 JLINK_WriteReg(R4, 0x00000000)
T66D0 000:820.922 - 0.003ms returns 0
T66D0 000:820.926 JLINK_WriteReg(R5, 0x00000000)
T66D0 000:820.930 - 0.003ms returns 0
T66D0 000:820.934 JLINK_WriteReg(R6, 0x00000000)
T66D0 000:820.937 - 0.003ms returns 0
T66D0 000:820.941 JLINK_WriteReg(R7, 0x00000000)
T66D0 000:820.945 - 0.003ms returns 0
T66D0 000:820.949 JLINK_WriteReg(R8, 0x00000000)
T66D0 000:820.953 - 0.003ms returns 0
T66D0 000:820.957 JLINK_WriteReg(R9, 0x2000013C)
T66D0 000:820.960 - 0.003ms returns 0
T66D0 000:820.964 JLINK_WriteReg(R10, 0x00000000)
T66D0 000:820.968 - 0.003ms returns 0
T66D0 000:820.972 JLINK_WriteReg(R11, 0x00000000)
T66D0 000:820.976 - 0.003ms returns 0
T66D0 000:820.980 JLINK_WriteReg(R12, 0x00000000)
T66D0 000:820.983 - 0.003ms returns 0
T66D0 000:820.987 JLINK_WriteReg(R13 (SP), 0x20001000)
T66D0 000:820.991 - 0.004ms returns 0
T66D0 000:820.995 JLINK_WriteReg(R14, 0x20000001)
T66D0 000:820.999 - 0.003ms returns 0
T66D0 000:821.003 JLINK_WriteReg(R15 (PC), 0x200000B0)
T66D0 000:821.006 - 0.003ms returns 0
T66D0 000:821.010 JLINK_WriteReg(XPSR, 0x01000000)
T66D0 000:821.014 - 0.003ms returns 0
T66D0 000:821.018 JLINK_WriteReg(MSP, 0x20001000)
T66D0 000:821.022 - 0.003ms returns 0
T66D0 000:821.026 JLINK_WriteReg(PSP, 0x20001000)
T66D0 000:821.029 - 0.003ms returns 0
T66D0 000:821.033 JLINK_WriteReg(CFBP, 0x00000000)
T66D0 000:821.037 - 0.003ms returns 0
T66D0 000:821.041 JLINK_SetBPEx(Addr = 0x20000000, Type = 0xFFFFFFF2)
T66D0 000:821.045 - 0.004ms returns 0x00000004
T66D0 000:821.050 JLINK_Go()
T66D0 000:821.058   CPU_ReadMem(4 bytes @ 0xE0001000)
T66D0 000:823.355 - 2.305ms
T66D0 000:823.365 JLINK_IsHalted()
T66D0 000:825.315   CPU_ReadMem(2 bytes @ 0x20000000)
T66D0 000:825.605 - 2.239ms returns TRUE
T66D0 000:825.613 JLINK_ReadReg(R15 (PC))
T66D0 000:825.619 - 0.005ms returns 0x20000000
T66D0 000:825.624 JLINK_ClrBPEx(BPHandle = 0x00000004)
T66D0 000:825.628 - 0.003ms returns 0x00
T66D0 000:825.633 JLINK_ReadReg(R0)
T66D0 000:825.636 - 0.003ms returns 0x00000001
T66D0 000:825.782 JLINK_HasError()
T66D0 000:825.787 JLINK_WriteReg(R0, 0x08000080)
T66D0 000:825.792 - 0.004ms returns 0
T66D0 000:825.796 JLINK_WriteReg(R1, 0x00000080)
T66D0 000:825.800 - 0.003ms returns 0
T66D0 000:825.804 JLINK_WriteReg(R2, 0x00000000)
T66D0 000:825.807 - 0.003ms returns 0
T66D0 000:825.811 JLINK_WriteReg(R3, 0x00000000)
T66D0 000:825.815 - 0.003ms returns 0
T66D0 000:825.818 JLINK_WriteReg(R4, 0x00000000)
T66D0 000:825.822 - 0.003ms returns 0
T66D0 000:825.826 JLINK_WriteReg(R5, 0x00000000)
T66D0 000:825.829 - 0.003ms returns 0
T66D0 000:825.833 JLINK_WriteReg(R6, 0x00000000)
T66D0 000:825.837 - 0.003ms returns 0
T66D0 000:825.841 JLINK_WriteReg(R7, 0x00000000)
T66D0 000:825.844 - 0.003ms returns 0
T66D0 000:825.848 JLINK_WriteReg(R8, 0x00000000)
T66D0 000:825.857 - 0.009ms returns 0
T66D0 000:825.861 JLINK_WriteReg(R9, 0x2000013C)
T66D0 000:825.865 - 0.003ms returns 0
T66D0 000:825.869 JLINK_WriteReg(R10, 0x00000000)
T66D0 000:825.872 - 0.003ms returns 0
T66D0 000:825.876 JLINK_WriteReg(R11, 0x00000000)
T66D0 000:825.880 - 0.003ms returns 0
T66D0 000:825.884 JLINK_WriteReg(R12, 0x00000000)
T66D0 000:825.887 - 0.003ms returns 0
T66D0 000:825.891 JLINK_WriteReg(R13 (SP), 0x20001000)
T66D0 000:825.895 - 0.004ms returns 0
T66D0 000:825.899 JLINK_WriteReg(R14, 0x20000001)
T66D0 000:825.903 - 0.003ms returns 0
T66D0 000:825.906 JLINK_WriteReg(R15 (PC), 0x2000007A)
T66D0 000:825.910 - 0.003ms returns 0
T66D0 000:825.914 JLINK_WriteReg(XPSR, 0x01000000)
T66D0 000:825.918 - 0.003ms returns 0
T66D0 000:825.922 JLINK_WriteReg(MSP, 0x20001000)
T66D0 000:825.925 - 0.003ms returns 0
T66D0 000:825.929 JLINK_WriteReg(PSP, 0x20001000)
T66D0 000:825.933 - 0.003ms returns 0
T66D0 000:825.937 JLINK_WriteReg(CFBP, 0x00000000)
T66D0 000:825.940 - 0.003ms returns 0
T66D0 000:825.944 JLINK_SetBPEx(Addr = 0x20000000, Type = 0xFFFFFFF2)
T66D0 000:825.949 - 0.004ms returns 0x00000005
T66D0 000:825.953 JLINK_Go()
T66D0 000:825.960   CPU_ReadMem(4 bytes @ 0xE0001000)
T66D0 000:828.131 - 2.177ms
T66D0 000:828.139 JLINK_IsHalted()
T66D0 000:828.425 - 0.284ms returns FALSE
T66D0 000:828.440 JLINK_HasError()
T66D0 000:834.288 JLINK_IsHalted()
T66D0 000:836.300   CPU_ReadMem(2 bytes @ 0x20000000)
T66D0 000:836.559 - 2.271ms returns TRUE
T66D0 000:836.565 JLINK_ReadReg(R15 (PC))
T66D0 000:836.570 - 0.004ms returns 0x20000000
T66D0 000:836.574 JLINK_ClrBPEx(BPHandle = 0x00000005)
T66D0 000:836.578 - 0.004ms returns 0x00
T66D0 000:836.582 JLINK_ReadReg(R0)
T66D0 000:836.586 - 0.003ms returns 0x00000000
T66D0 000:836.947 JLINK_HasError()
T66D0 000:836.957 JLINK_WriteReg(R0, 0x08000100)
T66D0 000:836.963 - 0.005ms returns 0
T66D0 000:836.967 JLINK_WriteReg(R1, 0x00000080)
T66D0 000:836.971 - 0.003ms returns 0
T66D0 000:836.975 JLINK_WriteReg(R2, 0x00000000)
T66D0 000:836.978 - 0.003ms returns 0
T66D0 000:836.982 JLINK_WriteReg(R3, 0x00000000)
T66D0 000:836.986 - 0.003ms returns 0
T66D0 000:836.990 JLINK_WriteReg(R4, 0x00000000)
T66D0 000:836.994 - 0.003ms returns 0
T66D0 000:836.997 JLINK_WriteReg(R5, 0x00000000)
T66D0 000:837.001 - 0.003ms returns 0
T66D0 000:837.005 JLINK_WriteReg(R6, 0x00000000)
T66D0 000:837.009 - 0.003ms returns 0
T66D0 000:837.012 JLINK_WriteReg(R7, 0x00000000)
T66D0 000:837.016 - 0.003ms returns 0
T66D0 000:837.020 JLINK_WriteReg(R8, 0x00000000)
T66D0 000:837.024 - 0.003ms returns 0
T66D0 000:837.028 JLINK_WriteReg(R9, 0x2000013C)
T66D0 000:837.031 - 0.003ms returns 0
T66D0 000:837.035 JLINK_WriteReg(R10, 0x00000000)
T66D0 000:837.039 - 0.003ms returns 0
T66D0 000:837.043 JLINK_WriteReg(R11, 0x00000000)
T66D0 000:837.046 - 0.003ms returns 0
T66D0 000:837.050 JLINK_WriteReg(R12, 0x00000000)
T66D0 000:837.054 - 0.003ms returns 0
T66D0 000:837.058 JLINK_WriteReg(R13 (SP), 0x20001000)
T66D0 000:837.062 - 0.004ms returns 0
T66D0 000:837.066 JLINK_WriteReg(R14, 0x20000001)
T66D0 000:837.070 - 0.003ms returns 0
T66D0 000:837.074 JLINK_WriteReg(R15 (PC), 0x200000B0)
T66D0 000:837.077 - 0.003ms returns 0
T66D0 000:837.082 JLINK_WriteReg(XPSR, 0x01000000)
T66D0 000:837.085 - 0.004ms returns 0
T66D0 000:837.089 JLINK_WriteReg(MSP, 0x20001000)
T66D0 000:837.093 - 0.003ms returns 0
T66D0 000:837.097 JLINK_WriteReg(PSP, 0x20001000)
T66D0 000:837.100 - 0.003ms returns 0
T66D0 000:837.104 JLINK_WriteReg(CFBP, 0x00000000)
T66D0 000:837.108 - 0.003ms returns 0
T66D0 000:837.112 JLINK_SetBPEx(Addr = 0x20000000, Type = 0xFFFFFFF2)
T66D0 000:837.117 - 0.005ms returns 0x00000006
T66D0 000:837.121 JLINK_Go()
T66D0 000:837.130   CPU_ReadMem(4 bytes @ 0xE0001000)
T66D0 000:839.326 - 2.204ms
T66D0 000:839.345 JLINK_IsHalted()
T66D0 000:841.312   CPU_ReadMem(2 bytes @ 0x20000000)
T66D0 000:841.605 - 2.259ms returns TRUE
T66D0 000:841.611 JLINK_ReadReg(R15 (PC))
T66D0 000:841.616 - 0.004ms returns 0x20000000
T66D0 000:841.625 JLINK_ClrBPEx(BPHandle = 0x00000006)
T66D0 000:841.629 - 0.003ms returns 0x00
T66D0 000:841.633 JLINK_ReadReg(R0)
T66D0 000:841.637 - 0.003ms returns 0x00000001
T66D0 000:841.641 JLINK_HasError()
T66D0 000:841.646 JLINK_WriteReg(R0, 0x08000100)
T66D0 000:841.650 - 0.003ms returns 0
T66D0 000:841.654 JLINK_WriteReg(R1, 0x00000080)
T66D0 000:841.657 - 0.003ms returns 0
T66D0 000:841.661 JLINK_WriteReg(R2, 0x00000000)
T66D0 000:841.665 - 0.003ms returns 0
T66D0 000:841.669 JLINK_WriteReg(R3, 0x00000000)
T66D0 000:841.672 - 0.003ms returns 0
T66D0 000:841.676 JLINK_WriteReg(R4, 0x00000000)
T66D0 000:841.680 - 0.003ms returns 0
T66D0 000:841.684 JLINK_WriteReg(R5, 0x00000000)
T66D0 000:841.688 - 0.003ms returns 0
T66D0 000:841.692 JLINK_WriteReg(R6, 0x00000000)
T66D0 000:841.696 - 0.003ms returns 0
T66D0 000:841.700 JLINK_WriteReg(R7, 0x00000000)
T66D0 000:841.704 - 0.003ms returns 0
T66D0 000:841.708 JLINK_WriteReg(R8, 0x00000000)
T66D0 000:841.711 - 0.003ms returns 0
T66D0 000:841.715 JLINK_WriteReg(R9, 0x2000013C)
T66D0 000:841.719 - 0.003ms returns 0
T66D0 000:841.722 JLINK_WriteReg(R10, 0x00000000)
T66D0 000:841.726 - 0.003ms returns 0
T66D0 000:841.730 JLINK_WriteReg(R11, 0x00000000)
T66D0 000:841.734 - 0.003ms returns 0
T66D0 000:841.737 JLINK_WriteReg(R12, 0x00000000)
T66D0 000:841.741 - 0.003ms returns 0
T66D0 000:841.745 JLINK_WriteReg(R13 (SP), 0x20001000)
T66D0 000:841.749 - 0.003ms returns 0
T66D0 000:841.753 JLINK_WriteReg(R14, 0x20000001)
T66D0 000:841.756 - 0.003ms returns 0
T66D0 000:841.760 JLINK_WriteReg(R15 (PC), 0x2000007A)
T66D0 000:841.764 - 0.003ms returns 0
T66D0 000:841.768 JLINK_WriteReg(XPSR, 0x01000000)
T66D0 000:841.772 - 0.004ms returns 0
T66D0 000:841.776 JLINK_WriteReg(MSP, 0x20001000)
T66D0 000:841.779 - 0.003ms returns 0
T66D0 000:841.783 JLINK_WriteReg(PSP, 0x20001000)
T66D0 000:841.787 - 0.003ms returns 0
T66D0 000:841.791 JLINK_WriteReg(CFBP, 0x00000000)
T66D0 000:841.794 - 0.003ms returns 0
T66D0 000:841.799 JLINK_SetBPEx(Addr = 0x20000000, Type = 0xFFFFFFF2)
T66D0 000:841.803 - 0.004ms returns 0x00000007
T66D0 000:841.807 JLINK_Go()
T66D0 000:841.814   CPU_ReadMem(4 bytes @ 0xE0001000)
T66D0 000:844.083 - 2.276ms
T66D0 000:844.089 JLINK_IsHalted()
T66D0 000:844.424 - 0.334ms returns FALSE
T66D0 000:844.429 JLINK_HasError()
T66D0 000:848.274 JLINK_IsHalted()
T66D0 000:850.240   CPU_ReadMem(2 bytes @ 0x20000000)
T66D0 000:850.503 - 2.230ms returns TRUE
T66D0 000:850.509 JLINK_ReadReg(R15 (PC))
T66D0 000:850.514 - 0.004ms returns 0x20000000
T66D0 000:850.518 JLINK_ClrBPEx(BPHandle = 0x00000007)
T66D0 000:850.522 - 0.003ms returns 0x00
T66D0 000:850.526 JLINK_ReadReg(R0)
T66D0 000:850.530 - 0.003ms returns 0x00000000
T66D0 000:850.883 JLINK_HasError()
T66D0 000:850.891 JLINK_WriteReg(R0, 0x08000180)
T66D0 000:850.896 - 0.005ms returns 0
T66D0 000:850.900 JLINK_WriteReg(R1, 0x00000080)
T66D0 000:850.904 - 0.003ms returns 0
T66D0 000:850.908 JLINK_WriteReg(R2, 0x00000000)
T66D0 000:850.912 - 0.003ms returns 0
T66D0 000:850.916 JLINK_WriteReg(R3, 0x00000000)
T66D0 000:850.919 - 0.003ms returns 0
T66D0 000:850.923 JLINK_WriteReg(R4, 0x00000000)
T66D0 000:850.927 - 0.003ms returns 0
T66D0 000:850.931 JLINK_WriteReg(R5, 0x00000000)
T66D0 000:850.934 - 0.003ms returns 0
T66D0 000:850.938 JLINK_WriteReg(R6, 0x00000000)
T66D0 000:850.942 - 0.003ms returns 0
T66D0 000:850.946 JLINK_WriteReg(R7, 0x00000000)
T66D0 000:850.949 - 0.003ms returns 0
T66D0 000:850.954 JLINK_WriteReg(R8, 0x00000000)
T66D0 000:850.957 - 0.004ms returns 0
T66D0 000:850.961 JLINK_WriteReg(R9, 0x2000013C)
T66D0 000:850.965 - 0.003ms returns 0
T66D0 000:850.969 JLINK_WriteReg(R10, 0x00000000)
T66D0 000:850.972 - 0.003ms returns 0
T66D0 000:850.976 JLINK_WriteReg(R11, 0x00000000)
T66D0 000:850.980 - 0.003ms returns 0
T66D0 000:850.984 JLINK_WriteReg(R12, 0x00000000)
T66D0 000:850.987 - 0.003ms returns 0
T66D0 000:850.991 JLINK_WriteReg(R13 (SP), 0x20001000)
T66D0 000:850.995 - 0.004ms returns 0
T66D0 000:851.003 JLINK_WriteReg(R14, 0x20000001)
T66D0 000:851.009 - 0.005ms returns 0
T66D0 000:851.013 JLINK_WriteReg(R15 (PC), 0x200000B0)
T66D0 000:851.016 - 0.003ms returns 0
T66D0 000:851.020 JLINK_WriteReg(XPSR, 0x01000000)
T66D0 000:851.024 - 0.003ms returns 0
T66D0 000:851.028 JLINK_WriteReg(MSP, 0x20001000)
T66D0 000:851.031 - 0.003ms returns 0
T66D0 000:851.035 JLINK_WriteReg(PSP, 0x20001000)
T66D0 000:851.039 - 0.003ms returns 0
T66D0 000:851.043 JLINK_WriteReg(CFBP, 0x00000000)
T66D0 000:851.046 - 0.003ms returns 0
T66D0 000:851.051 JLINK_SetBPEx(Addr = 0x20000000, Type = 0xFFFFFFF2)
T66D0 000:851.055 - 0.004ms returns 0x00000008
T66D0 000:851.059 JLINK_Go()
T66D0 000:851.068   CPU_ReadMem(4 bytes @ 0xE0001000)
T66D0 000:853.278 - 2.218ms
T66D0 000:853.285 JLINK_IsHalted()
T66D0 000:855.169   CPU_ReadMem(2 bytes @ 0x20000000)
T66D0 000:855.493 - 2.207ms returns TRUE
T66D0 000:855.503 JLINK_ReadReg(R15 (PC))
T66D0 000:855.508 - 0.004ms returns 0x20000000
T66D0 000:855.513 JLINK_ClrBPEx(BPHandle = 0x00000008)
T66D0 000:855.517 - 0.003ms returns 0x00
T66D0 000:855.650 JLINK_ReadReg(R0)
T66D0 000:855.668 - 0.018ms returns 0x00000001
T66D0 000:855.674 JLINK_HasError()
T66D0 000:855.679 JLINK_WriteReg(R0, 0x08000180)
T66D0 000:855.686 - 0.006ms returns 0
T66D0 000:855.691 JLINK_WriteReg(R1, 0x00000080)
T66D0 000:855.695 - 0.003ms returns 0
T66D0 000:855.701 JLINK_WriteReg(R2, 0x00000000)
T66D0 000:855.705 - 0.004ms returns 0
T66D0 000:855.710 JLINK_WriteReg(R3, 0x00000000)
T66D0 000:855.715 - 0.004ms returns 0
T66D0 000:855.720 JLINK_WriteReg(R4, 0x00000000)
T66D0 000:855.724 - 0.003ms returns 0
T66D0 000:855.729 JLINK_WriteReg(R5, 0x00000000)
T66D0 000:855.735 - 0.006ms returns 0
T66D0 000:855.743 JLINK_WriteReg(R6, 0x00000000)
T66D0 000:855.748 - 0.004ms returns 0
T66D0 000:855.753 JLINK_WriteReg(R7, 0x00000000)
T66D0 000:855.757 - 0.004ms returns 0
T66D0 000:855.762 JLINK_WriteReg(R8, 0x00000000)
T66D0 000:855.767 - 0.005ms returns 0
T66D0 000:855.772 JLINK_WriteReg(R9, 0x2000013C)
T66D0 000:855.778 - 0.005ms returns 0
T66D0 000:855.783 JLINK_WriteReg(R10, 0x00000000)
T66D0 000:855.788 - 0.004ms returns 0
T66D0 000:855.793 JLINK_WriteReg(R11, 0x00000000)
T66D0 000:855.799 - 0.005ms returns 0
T66D0 000:855.804 JLINK_WriteReg(R12, 0x00000000)
T66D0 000:855.808 - 0.003ms returns 0
T66D0 000:855.812 JLINK_WriteReg(R13 (SP), 0x20001000)
T66D0 000:855.816 - 0.003ms returns 0
T66D0 000:855.820 JLINK_WriteReg(R14, 0x20000001)
T66D0 000:855.823 - 0.003ms returns 0
T66D0 000:855.827 JLINK_WriteReg(R15 (PC), 0x2000007A)
T66D0 000:855.831 - 0.003ms returns 0
T66D0 000:855.835 JLINK_WriteReg(XPSR, 0x01000000)
T66D0 000:855.839 - 0.003ms returns 0
T66D0 000:855.842 JLINK_WriteReg(MSP, 0x20001000)
T66D0 000:855.846 - 0.003ms returns 0
T66D0 000:855.850 JLINK_WriteReg(PSP, 0x20001000)
T66D0 000:855.854 - 0.003ms returns 0
T66D0 000:855.858 JLINK_WriteReg(CFBP, 0x00000000)
T66D0 000:855.861 - 0.003ms returns 0
T66D0 000:855.866 JLINK_SetBPEx(Addr = 0x20000000, Type = 0xFFFFFFF2)
T66D0 000:855.870 - 0.004ms returns 0x00000009
T66D0 000:855.874 JLINK_Go()
T66D0 000:855.883   CPU_ReadMem(4 bytes @ 0xE0001000)
T66D0 000:858.042 - 2.167ms
T66D0 000:858.050 JLINK_IsHalted()
T66D0 000:858.330 - 0.279ms returns FALSE
T66D0 000:858.335 JLINK_HasError()
T66D0 000:861.271 JLINK_IsHalted()
T66D0 000:863.127   CPU_ReadMem(2 bytes @ 0x20000000)
T66D0 000:863.378 - 2.106ms returns TRUE
T66D0 000:863.383 JLINK_ReadReg(R15 (PC))
T66D0 000:863.388 - 0.004ms returns 0x20000000
T66D0 000:863.392 JLINK_ClrBPEx(BPHandle = 0x00000009)
T66D0 000:863.396 - 0.003ms returns 0x00
T66D0 000:863.400 JLINK_ReadReg(R0)
T66D0 000:863.403 - 0.003ms returns 0x00000000
T66D0 000:863.710 JLINK_HasError()
T66D0 000:863.718 JLINK_WriteReg(R0, 0x08000200)
T66D0 000:863.723 - 0.005ms returns 0
T66D0 000:863.727 JLINK_WriteReg(R1, 0x00000080)
T66D0 000:863.731 - 0.003ms returns 0
T66D0 000:863.735 JLINK_WriteReg(R2, 0x00000000)
T66D0 000:863.739 - 0.003ms returns 0
T66D0 000:863.743 JLINK_WriteReg(R3, 0x00000000)
T66D0 000:863.752 - 0.009ms returns 0
T66D0 000:863.756 JLINK_WriteReg(R4, 0x00000000)
T66D0 000:863.759 - 0.003ms returns 0
T66D0 000:863.763 JLINK_WriteReg(R5, 0x00000000)
T66D0 000:863.767 - 0.003ms returns 0
T66D0 000:863.770 JLINK_WriteReg(R6, 0x00000000)
T66D0 000:863.774 - 0.003ms returns 0
T66D0 000:863.778 JLINK_WriteReg(R7, 0x00000000)
T66D0 000:863.782 - 0.003ms returns 0
T66D0 000:863.785 JLINK_WriteReg(R8, 0x00000000)
T66D0 000:863.789 - 0.003ms returns 0
T66D0 000:863.793 JLINK_WriteReg(R9, 0x2000013C)
T66D0 000:863.796 - 0.003ms returns 0
T66D0 000:863.800 JLINK_WriteReg(R10, 0x00000000)
T66D0 000:863.804 - 0.003ms returns 0
T66D0 000:863.808 JLINK_WriteReg(R11, 0x00000000)
T66D0 000:863.812 - 0.003ms returns 0
T66D0 000:863.815 JLINK_WriteReg(R12, 0x00000000)
T66D0 000:863.819 - 0.003ms returns 0
T66D0 000:863.823 JLINK_WriteReg(R13 (SP), 0x20001000)
T66D0 000:863.827 - 0.003ms returns 0
T66D0 000:863.831 JLINK_WriteReg(R14, 0x20000001)
T66D0 000:863.834 - 0.003ms returns 0
T66D0 000:863.838 JLINK_WriteReg(R15 (PC), 0x200000B0)
T66D0 000:863.842 - 0.003ms returns 0
T66D0 000:863.846 JLINK_WriteReg(XPSR, 0x01000000)
T66D0 000:863.849 - 0.003ms returns 0
T66D0 000:863.853 JLINK_WriteReg(MSP, 0x20001000)
T66D0 000:863.857 - 0.003ms returns 0
T66D0 000:863.861 JLINK_WriteReg(PSP, 0x20001000)
T66D0 000:863.864 - 0.003ms returns 0
T66D0 000:863.868 JLINK_WriteReg(CFBP, 0x00000000)
T66D0 000:863.872 - 0.003ms returns 0
T66D0 000:863.876 JLINK_SetBPEx(Addr = 0x20000000, Type = 0xFFFFFFF2)
T66D0 000:863.880 - 0.004ms returns 0x0000000A
T66D0 000:863.884 JLINK_Go()
T66D0 000:863.891   CPU_ReadMem(4 bytes @ 0xE0001000)
T66D0 000:866.163 - 2.278ms
T66D0 000:866.168 JLINK_IsHalted()
T66D0 000:868.067   CPU_ReadMem(2 bytes @ 0x20000000)
T66D0 000:868.411 - 2.242ms returns TRUE
T66D0 000:868.416 JLINK_ReadReg(R15 (PC))
T66D0 000:868.420 - 0.004ms returns 0x20000000
T66D0 000:868.424 JLINK_ClrBPEx(BPHandle = 0x0000000A)
T66D0 000:868.428 - 0.003ms returns 0x00
T66D0 000:868.432 JLINK_ReadReg(R0)
T66D0 000:868.435 - 0.003ms returns 0x00000001
T66D0 000:868.440 JLINK_HasError()
T66D0 000:868.444 JLINK_WriteReg(R0, 0x08000200)
T66D0 000:868.448 - 0.003ms returns 0
T66D0 000:868.451 JLINK_WriteReg(R1, 0x00000080)
T66D0 000:868.455 - 0.003ms returns 0
T66D0 000:868.459 JLINK_WriteReg(R2, 0x00000000)
T66D0 000:868.463 - 0.003ms returns 0
T66D0 000:868.466 JLINK_WriteReg(R3, 0x00000000)
T66D0 000:868.470 - 0.003ms returns 0
T66D0 000:868.474 JLINK_WriteReg(R4, 0x00000000)
T66D0 000:868.478 - 0.003ms returns 0
T66D0 000:868.481 JLINK_WriteReg(R5, 0x00000000)
T66D0 000:868.485 - 0.003ms returns 0
T66D0 000:868.489 JLINK_WriteReg(R6, 0x00000000)
T66D0 000:868.492 - 0.003ms returns 0
T66D0 000:868.496 JLINK_WriteReg(R7, 0x00000000)
T66D0 000:868.500 - 0.003ms returns 0
T66D0 000:868.504 JLINK_WriteReg(R8, 0x00000000)
T66D0 000:868.507 - 0.003ms returns 0
T66D0 000:868.511 JLINK_WriteReg(R9, 0x2000013C)
T66D0 000:868.514 - 0.003ms returns 0
T66D0 000:868.518 JLINK_WriteReg(R10, 0x00000000)
T66D0 000:868.522 - 0.003ms returns 0
T66D0 000:868.526 JLINK_WriteReg(R11, 0x00000000)
T66D0 000:868.529 - 0.003ms returns 0
T66D0 000:868.533 JLINK_WriteReg(R12, 0x00000000)
T66D0 000:868.537 - 0.003ms returns 0
T66D0 000:868.541 JLINK_WriteReg(R13 (SP), 0x20001000)
T66D0 000:868.544 - 0.003ms returns 0
T66D0 000:868.548 JLINK_WriteReg(R14, 0x20000001)
T66D0 000:868.552 - 0.003ms returns 0
T66D0 000:868.556 JLINK_WriteReg(R15 (PC), 0x2000007A)
T66D0 000:868.559 - 0.003ms returns 0
T66D0 000:868.563 JLINK_WriteReg(XPSR, 0x01000000)
T66D0 000:868.567 - 0.003ms returns 0
T66D0 000:868.571 JLINK_WriteReg(MSP, 0x20001000)
T66D0 000:868.574 - 0.003ms returns 0
T66D0 000:868.578 JLINK_WriteReg(PSP, 0x20001000)
T66D0 000:868.582 - 0.003ms returns 0
T66D0 000:868.586 JLINK_WriteReg(CFBP, 0x00000000)
T66D0 000:868.589 - 0.003ms returns 0
T66D0 000:868.593 JLINK_SetBPEx(Addr = 0x20000000, Type = 0xFFFFFFF2)
T66D0 000:868.597 - 0.003ms returns 0x0000000B
T66D0 000:868.603 JLINK_Go()
T66D0 000:868.609   CPU_ReadMem(4 bytes @ 0xE0001000)
T66D0 000:870.885 - 2.281ms
T66D0 000:870.900 JLINK_IsHalted()
T66D0 000:871.240 - 0.339ms returns FALSE
T66D0 000:871.251 JLINK_HasError()
T66D0 000:873.268 JLINK_IsHalted()
T66D0 000:873.552 - 0.283ms returns FALSE
T66D0 000:873.557 JLINK_HasError()
T66D0 000:875.331 JLINK_IsHalted()
T66D0 000:877.512   CPU_ReadMem(2 bytes @ 0x20000000)
T66D0 000:877.803 - 2.473ms returns TRUE
T66D0 000:877.812 JLINK_ReadReg(R15 (PC))
T66D0 000:877.819 - 0.007ms returns 0x20000000
T66D0 000:877.825 JLINK_ClrBPEx(BPHandle = 0x0000000B)
T66D0 000:877.830 - 0.005ms returns 0x00
T66D0 000:877.836 JLINK_ReadReg(R0)
T66D0 000:877.841 - 0.005ms returns 0x00000000
T66D0 000:878.342 JLINK_HasError()
T66D0 000:878.358 JLINK_WriteReg(R0, 0x08000280)
T66D0 000:878.366 - 0.007ms returns 0
T66D0 000:878.372 JLINK_WriteReg(R1, 0x00000080)
T66D0 000:878.377 - 0.005ms returns 0
T66D0 000:878.383 JLINK_WriteReg(R2, 0x00000000)
T66D0 000:878.388 - 0.005ms returns 0
T66D0 000:878.394 JLINK_WriteReg(R3, 0x00000000)
T66D0 000:878.400 - 0.005ms returns 0
T66D0 000:878.405 JLINK_WriteReg(R4, 0x00000000)
T66D0 000:878.411 - 0.005ms returns 0
T66D0 000:878.416 JLINK_WriteReg(R5, 0x00000000)
T66D0 000:878.421 - 0.005ms returns 0
T66D0 000:878.427 JLINK_WriteReg(R6, 0x00000000)
T66D0 000:878.433 - 0.005ms returns 0
T66D0 000:878.439 JLINK_WriteReg(R7, 0x00000000)
T66D0 000:878.444 - 0.005ms returns 0
T66D0 000:878.450 JLINK_WriteReg(R8, 0x00000000)
T66D0 000:878.455 - 0.005ms returns 0
T66D0 000:878.461 JLINK_WriteReg(R9, 0x2000013C)
T66D0 000:878.466 - 0.005ms returns 0
T66D0 000:878.472 JLINK_WriteReg(R10, 0x00000000)
T66D0 000:878.477 - 0.005ms returns 0
T66D0 000:878.483 JLINK_WriteReg(R11, 0x00000000)
T66D0 000:878.489 - 0.005ms returns 0
T66D0 000:878.495 JLINK_WriteReg(R12, 0x00000000)
T66D0 000:878.500 - 0.005ms returns 0
T66D0 000:878.506 JLINK_WriteReg(R13 (SP), 0x20001000)
T66D0 000:878.511 - 0.005ms returns 0
T66D0 000:878.517 JLINK_WriteReg(R14, 0x20000001)
T66D0 000:878.522 - 0.005ms returns 0
T66D0 000:878.528 JLINK_WriteReg(R15 (PC), 0x200000B0)
T66D0 000:878.533 - 0.005ms returns 0
T66D0 000:878.539 JLINK_WriteReg(XPSR, 0x01000000)
T66D0 000:878.545 - 0.005ms returns 0
T66D0 000:878.551 JLINK_WriteReg(MSP, 0x20001000)
T66D0 000:878.556 - 0.005ms returns 0
T66D0 000:878.562 JLINK_WriteReg(PSP, 0x20001000)
T66D0 000:878.567 - 0.005ms returns 0
T66D0 000:878.573 JLINK_WriteReg(CFBP, 0x00000000)
T66D0 000:878.578 - 0.005ms returns 0
T66D0 000:878.584 JLINK_SetBPEx(Addr = 0x20000000, Type = 0xFFFFFFF2)
T66D0 000:878.590 - 0.006ms returns 0x0000000C
T66D0 000:878.596 JLINK_Go()
T66D0 000:878.609   CPU_ReadMem(4 bytes @ 0xE0001000)
T66D0 000:880.822 - 2.224ms
T66D0 000:880.840 JLINK_IsHalted()
T66D0 000:882.723   CPU_ReadMem(2 bytes @ 0x20000000)
T66D0 000:883.013 - 2.172ms returns TRUE
T66D0 000:883.021 JLINK_ReadReg(R15 (PC))
T66D0 000:883.027 - 0.006ms returns 0x20000000
T66D0 000:883.034 JLINK_ClrBPEx(BPHandle = 0x0000000C)
T66D0 000:883.041 - 0.006ms returns 0x00
T66D0 000:883.047 JLINK_ReadReg(R0)
T66D0 000:883.052 - 0.005ms returns 0x00000001
T66D0 000:883.060 JLINK_HasError()
T66D0 000:883.204 JLINK_WriteReg(R0, 0x08000280)
T66D0 000:883.211 - 0.006ms returns 0
T66D0 000:883.217 JLINK_WriteReg(R1, 0x00000080)
T66D0 000:883.222 - 0.005ms returns 0
T66D0 000:883.228 JLINK_WriteReg(R2, 0x00000000)
T66D0 000:883.233 - 0.005ms returns 0
T66D0 000:883.238 JLINK_WriteReg(R3, 0x00000000)
T66D0 000:883.243 - 0.005ms returns 0
T66D0 000:883.249 JLINK_WriteReg(R4, 0x00000000)
T66D0 000:883.254 - 0.005ms returns 0
T66D0 000:883.260 JLINK_WriteReg(R5, 0x00000000)
T66D0 000:883.267 - 0.007ms returns 0
T66D0 000:883.275 JLINK_WriteReg(R6, 0x00000000)
T66D0 000:883.280 - 0.005ms returns 0
T66D0 000:883.285 JLINK_WriteReg(R7, 0x00000000)
T66D0 000:883.290 - 0.004ms returns 0
T66D0 000:883.296 JLINK_WriteReg(R8, 0x00000000)
T66D0 000:883.301 - 0.005ms returns 0
T66D0 000:883.311 JLINK_WriteReg(R9, 0x2000013C)
T66D0 000:883.320 - 0.008ms returns 0
T66D0 000:883.325 JLINK_WriteReg(R10, 0x00000000)
T66D0 000:883.330 - 0.005ms returns 0
T66D0 000:883.336 JLINK_WriteReg(R11, 0x00000000)
T66D0 000:883.341 - 0.005ms returns 0
T66D0 000:883.347 JLINK_WriteReg(R12, 0x00000000)
T66D0 000:883.352 - 0.005ms returns 0
T66D0 000:883.357 JLINK_WriteReg(R13 (SP), 0x20001000)
T66D0 000:883.363 - 0.005ms returns 0
T66D0 000:883.368 JLINK_WriteReg(R14, 0x20000001)
T66D0 000:883.374 - 0.005ms returns 0
T66D0 000:883.379 JLINK_WriteReg(R15 (PC), 0x2000007A)
T66D0 000:883.385 - 0.005ms returns 0
T66D0 000:883.391 JLINK_WriteReg(XPSR, 0x01000000)
T66D0 000:883.396 - 0.005ms returns 0
T66D0 000:883.402 JLINK_WriteReg(MSP, 0x20001000)
T66D0 000:883.407 - 0.005ms returns 0
T66D0 000:883.412 JLINK_WriteReg(PSP, 0x20001000)
T66D0 000:883.417 - 0.005ms returns 0
T66D0 000:883.423 JLINK_WriteReg(CFBP, 0x00000000)
T66D0 000:883.428 - 0.005ms returns 0
T66D0 000:883.434 JLINK_SetBPEx(Addr = 0x20000000, Type = 0xFFFFFFF2)
T66D0 000:883.440 - 0.005ms returns 0x0000000D
T66D0 000:883.446 JLINK_Go()
T66D0 000:883.456   CPU_ReadMem(4 bytes @ 0xE0001000)
T66D0 000:885.676 - 2.230ms
T66D0 000:885.684 JLINK_IsHalted()
T66D0 000:885.947 - 0.262ms returns FALSE
T66D0 000:885.954 JLINK_HasError()
T66D0 000:887.278 JLINK_IsHalted()
T66D0 000:887.594 - 0.315ms returns FALSE
T66D0 000:887.611 JLINK_HasError()
T66D0 000:891.270 JLINK_IsHalted()
T66D0 000:893.172   CPU_ReadMem(2 bytes @ 0x20000000)
T66D0 000:893.446 - 2.176ms returns TRUE
T66D0 000:893.453 JLINK_ReadReg(R15 (PC))
T66D0 000:893.459 - 0.005ms returns 0x20000000
T66D0 000:893.464 JLINK_ClrBPEx(BPHandle = 0x0000000D)
T66D0 000:893.468 - 0.004ms returns 0x00
T66D0 000:893.473 JLINK_ReadReg(R0)
T66D0 000:893.478 - 0.004ms returns 0x00000000
T66D0 000:893.884 JLINK_HasError()
T66D0 000:893.894 JLINK_WriteReg(R0, 0x08000300)
T66D0 000:893.901 - 0.006ms returns 0
T66D0 000:893.906 JLINK_WriteReg(R1, 0x00000080)
T66D0 000:893.910 - 0.004ms returns 0
T66D0 000:893.915 JLINK_WriteReg(R2, 0x00000000)
T66D0 000:893.919 - 0.004ms returns 0
T66D0 000:893.924 JLINK_WriteReg(R3, 0x00000000)
T66D0 000:893.929 - 0.004ms returns 0
T66D0 000:893.934 JLINK_WriteReg(R4, 0x00000000)
T66D0 000:893.938 - 0.004ms returns 0
T66D0 000:893.943 JLINK_WriteReg(R5, 0x00000000)
T66D0 000:893.947 - 0.004ms returns 0
T66D0 000:893.952 JLINK_WriteReg(R6, 0x00000000)
T66D0 000:893.957 - 0.004ms returns 0
T66D0 000:893.962 JLINK_WriteReg(R7, 0x00000000)
T66D0 000:893.966 - 0.004ms returns 0
T66D0 000:893.977 JLINK_WriteReg(R8, 0x00000000)
T66D0 000:893.981 - 0.010ms returns 0
T66D0 000:893.986 JLINK_WriteReg(R9, 0x2000013C)
T66D0 000:893.990 - 0.004ms returns 0
T66D0 000:893.995 JLINK_WriteReg(R10, 0x00000000)
T66D0 000:893.999 - 0.004ms returns 0
T66D0 000:894.004 JLINK_WriteReg(R11, 0x00000000)
T66D0 000:894.009 - 0.004ms returns 0
T66D0 000:894.013 JLINK_WriteReg(R12, 0x00000000)
T66D0 000:894.018 - 0.004ms returns 0
T66D0 000:894.023 JLINK_WriteReg(R13 (SP), 0x20001000)
T66D0 000:894.028 - 0.004ms returns 0
T66D0 000:894.032 JLINK_WriteReg(R14, 0x20000001)
T66D0 000:894.037 - 0.004ms returns 0
T66D0 000:894.042 JLINK_WriteReg(R15 (PC), 0x200000B0)
T66D0 000:894.046 - 0.004ms returns 0
T66D0 000:894.051 JLINK_WriteReg(XPSR, 0x01000000)
T66D0 000:894.055 - 0.004ms returns 0
T66D0 000:894.060 JLINK_WriteReg(MSP, 0x20001000)
T66D0 000:894.064 - 0.004ms returns 0
T66D0 000:894.069 JLINK_WriteReg(PSP, 0x20001000)
T66D0 000:894.073 - 0.004ms returns 0
T66D0 000:894.078 JLINK_WriteReg(CFBP, 0x00000000)
T66D0 000:894.083 - 0.004ms returns 0
T66D0 000:894.088 JLINK_SetBPEx(Addr = 0x20000000, Type = 0xFFFFFFF2)
T66D0 000:894.093 - 0.005ms returns 0x0000000E
T66D0 000:894.098 JLINK_Go()
T66D0 000:894.108   CPU_ReadMem(4 bytes @ 0xE0001000)
T66D0 000:896.319 - 2.220ms
T66D0 000:896.328 JLINK_IsHalted()
T66D0 000:898.248   CPU_ReadMem(2 bytes @ 0x20000000)
T66D0 000:898.528 - 2.199ms returns TRUE
T66D0 000:898.539 JLINK_ReadReg(R15 (PC))
T66D0 000:898.551 - 0.012ms returns 0x20000000
T66D0 000:898.556 JLINK_ClrBPEx(BPHandle = 0x0000000E)
T66D0 000:898.561 - 0.004ms returns 0x00
T66D0 000:898.566 JLINK_ReadReg(R0)
T66D0 000:898.570 - 0.004ms returns 0x00000001
T66D0 000:898.575 JLINK_HasError()
T66D0 000:898.581 JLINK_WriteReg(R0, 0x08000300)
T66D0 000:898.586 - 0.005ms returns 0
T66D0 000:898.591 JLINK_WriteReg(R1, 0x00000080)
T66D0 000:898.595 - 0.004ms returns 0
T66D0 000:898.600 JLINK_WriteReg(R2, 0x00000000)
T66D0 000:898.605 - 0.004ms returns 0
T66D0 000:898.610 JLINK_WriteReg(R3, 0x00000000)
T66D0 000:898.614 - 0.004ms returns 0
T66D0 000:898.619 JLINK_WriteReg(R4, 0x00000000)
T66D0 000:898.624 - 0.004ms returns 0
T66D0 000:898.628 JLINK_WriteReg(R5, 0x00000000)
T66D0 000:898.633 - 0.004ms returns 0
T66D0 000:898.638 JLINK_WriteReg(R6, 0x00000000)
T66D0 000:898.642 - 0.004ms returns 0
T66D0 000:898.647 JLINK_WriteReg(R7, 0x00000000)
T66D0 000:898.651 - 0.004ms returns 0
T66D0 000:898.656 JLINK_WriteReg(R8, 0x00000000)
T66D0 000:898.661 - 0.004ms returns 0
T66D0 000:898.666 JLINK_WriteReg(R9, 0x2000013C)
T66D0 000:898.670 - 0.004ms returns 0
T66D0 000:898.675 JLINK_WriteReg(R10, 0x00000000)
T66D0 000:898.679 - 0.004ms returns 0
T66D0 000:898.684 JLINK_WriteReg(R11, 0x00000000)
T66D0 000:898.688 - 0.004ms returns 0
T66D0 000:898.693 JLINK_WriteReg(R12, 0x00000000)
T66D0 000:898.698 - 0.004ms returns 0
T66D0 000:898.703 JLINK_WriteReg(R13 (SP), 0x20001000)
T66D0 000:898.707 - 0.004ms returns 0
T66D0 000:898.714 JLINK_WriteReg(R14, 0x20000001)
T66D0 000:898.719 - 0.005ms returns 0
T66D0 000:898.725 JLINK_WriteReg(R15 (PC), 0x2000007A)
T66D0 000:898.730 - 0.005ms returns 0
T66D0 000:898.736 JLINK_WriteReg(XPSR, 0x01000000)
T66D0 000:898.741 - 0.005ms returns 0
T66D0 000:898.747 JLINK_WriteReg(MSP, 0x20001000)
T66D0 000:898.753 - 0.005ms returns 0
